nmos n gate, linear 
#           v(1)       v(2)       v(3)       v(4)       iter(0)   
 27.        3.2367     0.0099998  0.01      -1.2349     4.        
#           i(Vgs)     i(Vds)     i(Vbs)     ps(Vgs)    ps(Vds)    ps(Vbs)   
 27.        0.        -186.11n    0.         0.         1.8611n    0.        
#           id(M1)     is(M1)     ig(M1)     ib(M1)     ibs(M1)    ibd(M1)   
 27.        186.11n   -186.11n    0.        -2.4997p   -1.2449p   -1.2549p   
#           vgs(M1)    vds(M1)    vbs(M1)    vth(M1)    vdsat(M1) 
 27.        3.2367     0.0099998 -1.2349     ??         3.5982    
#           gmb(M1)    gm(M1)     gds(M1)    gbd(M1)    gbs(M1)   
 27.        ??         28.79n     18.586u    1.p        1.p       
#           cgs(M1)    cgd(M1)    cgb(M1)    cbd(M1)    cbs(M1)   
 27.        13.998f    13.972f    0.         0.         0.        
#           cgsovl(M1) cgdovl(M1) cgbovl(M1) cgate(M1)  region(M1)
 27.        ??         ??         ??         ??         ??        
#           cgst(M1)   cgdt(M1)   cgbt(M1)  
 27.        ??         ??         ??        
#           p(M1)      pd(M1)     ps(M1)     ids(M1)    idstray(M1) iderror(M1)
 27.        1.8642n    0.         0.         ??         ??         ??        
#           vdm(M1)    vgm(M1)    vbm(M1)    vsm(M1)   
 27.        ??         ??         ??         ??        
#           vd(M1)     vg(M1)     vb(M1)     vs(M1)    
 27.        ??         ??         ??         ??        
#           v(1)       v(2)       v(3)       i(Vds)     i(Rds)    
-10.       -10.        0.01       0.01       0.        -1.2649p   
-9.        -9.         0.01       0.01       0.        -1.2649p   
-8.        -8.         0.01       0.01       0.        -1.2649p   
-7.        -7.         0.01       0.01       0.        -1.2649p   
-6.        -6.         0.01       0.01       0.        -1.2649p   
-5.        -5.         0.01       0.01       0.        -1.2649p   
-4.        -4.         0.01       0.01       0.        -1.2649p   
-3.        -3.         0.01       0.01       0.        -1.2649p   
-2.        -2.         0.01       0.01       0.        -1.2649p   
-1.        -1.         0.01       0.01       0.        -1.2649p   
 0.         0.         0.01       0.01       0.        -1.2649p   
 1.         1.         0.0099999  0.01      -103.34n   -103.34n   
 2.         2.         0.0099999  0.01      -146.24n   -146.24n   
 3.         3.         0.0099998  0.01      -179.17n   -179.17n   
 4.         4.         0.0099998  0.01      -206.93n   -206.93n   
 5.         5.         0.0099998  0.01      -231.38n   -231.38n   
 6.         6.         0.0099997  0.01      -253.49n   -253.49n   
 7.         7.         0.0099997  0.01      -273.82n   -273.82n   
 8.         8.         0.0099997  0.01      -292.74n   -292.74n   
 9.         9.         0.0099997  0.01      -310.52n   -310.52n   
 10.        10.        0.0099997  0.01      -327.33n   -327.33n   
