nmos n gate, linear 
#           v(1)       v(2)       v(3)       v(4)       iter(0)   
 27.        3.2367    -0.0099998 -0.01      -1.2349     4.        
#           i(Vgs)     i(Vds)     i(Vbs)     ps(Vgs)    ps(Vds)    ps(Vbs)   
 27.        0.         186.4n     0.         0.         1.864n     0.        
#           id(M1)     is(M1)     ig(M1)     ib(M1)     ibs(M1)    ibd(M1)   
 27.       -186.4n     186.4n     0.        -2.4798p   -1.2449p   -1.2349p   
#           vgs(M1)    vds(M1)    vbs(M1)    vth(M1)    vdsat(M1) 
 27.        3.2367    -0.0099998 -1.2349     ??         3.6037    
#           gmb(M1)    gm(M1)     gds(M1)    gbd(M1)    gbs(M1)   
 27.        ??         28.746n    18.615u    1.p        1.p       
#           cgs(M1)    cgd(M1)    cgb(M1)    cbd(M1)    cbs(M1)   
 27.        13.972f    13.998f    0.         0.         0.        
#           cgsovl(M1) cgdovl(M1) cgbovl(M1) cgate(M1)  region(M1)
 27.        ??         ??         ??         ??         ??        
#           cgst(M1)   cgdt(M1)   cgbt(M1)  
 27.        ??         ??         ??        
#           p(M1)      pd(M1)     ps(M1)     ids(M1)    idstray(M1) iderror(M1)
 27.        1.867n     0.         0.         ??         ??         ??        
#           vdm(M1)    vgm(M1)    vbm(M1)    vsm(M1)   
 27.        ??         ??         ??         ??        
#           vd(M1)     vg(M1)     vb(M1)     vs(M1)    
 27.        ??         ??         ??         ??        
#           v(1)       v(2)       v(3)       i(Vds)     i(Rds)    
-10.       -10.       -0.01      -0.01       0.        -1.2249p   
-9.        -9.        -0.01      -0.01       0.        -1.2249p   
-8.        -8.        -0.01      -0.01       0.        -1.2249p   
-7.        -7.        -0.01      -0.01       0.        -1.2249p   
-6.        -6.        -0.01      -0.01       0.        -1.2249p   
-5.        -5.        -0.01      -0.01       0.        -1.2249p   
-4.        -4.        -0.01      -0.01       0.        -1.2249p   
-3.        -3.        -0.01      -0.01       0.        -1.2249p   
-2.        -2.        -0.01      -0.01       0.        -1.2249p   
-1.        -1.        -0.01      -0.01       0.        -1.2249p   
 0.         0.        -0.01      -0.01       10.099n    10.099n   
 1.         1.        -0.0099999 -0.01       103.85n    103.85n   
 2.         2.        -0.0099999 -0.01       146.61n    146.61n   
 3.         3.        -0.0099998 -0.01       179.47n    179.47n   
 4.         4.        -0.0099998 -0.01       207.18n    207.18n   
 5.         5.        -0.0099998 -0.01       231.61n    231.61n   
 6.         6.        -0.0099997 -0.01       253.7n     253.7n    
 7.         7.        -0.0099997 -0.01       274.01n    274.01n   
 8.         8.        -0.0099997 -0.01       292.92n    292.92n   
 9.         9.        -0.0099997 -0.01       310.69n    310.69n   
 10.        10.       -0.0099997 -0.01       327.49n    327.49n   
