nmos n gate, linear 
#           v(1)       v(2)       v(3)       v(4)       iter(0)   
 27.        3.2367    -1.245p     0.        -1.2349     4.        
#           i(Vgs)     i(Vds)     i(Vbs)     ps(Vgs)    ps(Vds)    ps(Vbs)   
 27.        0.        -1.2449p    0.         0.         0.         0.        
#           id(M1)     is(M1)     ig(M1)     ib(M1)     ibs(M1)    ibd(M1)   
 27.        1.2449p    1.2449p    0.        -2.4898p   -1.2449p   -1.2449p   
#           vgs(M1)    vds(M1)    vbs(M1)    vth(M1)    vdsat(M1) 
 27.        3.2367    -1.2448p   -1.2349     ??         3.5982    
#           gmb(M1)    gm(M1)     gds(M1)    gbd(M1)    gbs(M1)   
 27.        ??         3.584E-18  18.638u    1.p        1.p       
#           cgs(M1)    cgd(M1)    cgb(M1)    cbd(M1)    cbs(M1)   
 27.        13.985f    13.985f    0.         0.         0.        
#           cgsovl(M1) cgdovl(M1) cgbovl(M1) cgate(M1)  region(M1)
 27.        ??         ??         ??         ??         ??        
#           cgst(M1)   cgdt(M1)   cgbt(M1)  
 27.        ??         ??         ??        
#           p(M1)      pd(M1)     ps(M1)     ids(M1)    idstray(M1) iderror(M1)
 27.        3.0745p    0.         0.         ??         ??         ??        
#           vdm(M1)    vgm(M1)    vbm(M1)    vsm(M1)   
 27.        ??         ??         ??         ??        
#           vd(M1)     vg(M1)     vb(M1)     vs(M1)    
 27.        ??         ??         ??         ??        
#           v(1)       v(2)       v(3)       i(Vds)     i(Rds)    
-10.       -10.       -1.245p     0.        -1.2449p   -1.2449p   
-9.        -9.        -1.245p     0.        -1.2449p   -1.2449p   
-8.        -8.        -1.245p     0.        -1.2449p   -1.2449p   
-7.        -7.        -1.245p     0.        -1.2449p   -1.2449p   
-6.        -6.        -1.245p     0.        -1.2449p   -1.2449p   
-5.        -5.        -1.245p     0.        -1.2449p   -1.2449p   
-4.        -4.        -1.245p     0.        -1.2449p   -1.2449p   
-3.        -3.        -1.245p     0.        -1.2449p   -1.2449p   
-2.        -2.        -1.245p     0.        -1.2449p   -1.2449p   
-1.        -1.        -1.245p     0.        -1.2449p   -1.2449p   
 0.         0.        -1.245p     0.        -1.2449p   -1.2449p   
 1.         1.        -1.245p     0.        -1.2449p   -1.2449p   
 2.         2.        -1.245p     0.        -1.2449p   -1.2449p   
 3.         3.        -1.245p     0.        -1.2449p   -1.2449p   
 4.         4.        -1.245p     0.        -1.2448p   -1.2448p   
 5.         5.        -1.245p     0.        -1.2448p   -1.2448p   
 6.         6.        -1.245p     0.        -1.2448p   -1.2448p   
 7.         7.        -1.245p     0.        -1.2448p   -1.2448p   
 8.         8.        -1.245p     0.        -1.2448p   -1.2448p   
 9.         9.        -1.245p     0.        -1.2448p   -1.2448p   
 10.        10.       -1.245p     0.        -1.2448p   -1.2448p   
