.title mos6 inverter 
#          
 27.       
#           v(1)       v(2)       v(3)       v(4)       v(5)       v(6)       v(7)      
 0.         5.         0.         5.         4.6489     5.         3.5235     5.        
 0.25       5.         0.25       5.         4.638      5.         3.4778     5.        
 0.5        5.         0.5        5.         4.6261     5.         3.4269     5.        
 0.75       5.         0.75       4.9734     4.5856     4.9734     3.3699     4.93      
 1.         5.         1.         4.8309     4.4239     4.8309     3.3051     4.58      
 1.25       5.         1.25       4.6694     4.2379     4.6694     3.2305     4.23      
 1.5        5.         1.5        4.4818     4.0176     4.4818     3.1432     3.88      
 1.75       5.         1.75       4.2557     3.7437     4.2557     3.0385     3.53      
 2.         5.         2.         3.9668     3.3727     3.9668     2.9092     3.18      
 2.25       5.         2.25       3.5506     2.7354     3.5506     2.7418     2.83      
 2.5        5.         2.5        2.5        1.6795     2.5        2.5073     2.4927    
 2.75       5.         2.75       1.4494     1.2121     1.4494     2.17       2.2582    
 3.         5.         3.         1.0332     0.90212    1.0332     1.82       2.0908    
 3.25       5.         3.25       0.74425    0.66421    0.74425    1.47       1.9615    
 3.5        5.         3.5        0.51821    0.46891    0.51821    1.12       1.8568    
 3.75       5.         3.75       0.33057    0.30205    0.33057    0.77       1.7695    
 4.         5.         4.         0.16908    0.15563    0.16908    0.42       1.6949    
 4.25       5.         4.25       0.026631   0.024655   0.026631   0.07       1.6301    
 4.5        5.         4.5        3.8551n    3.5797n    3.8551n    10.521n    1.5731    
 4.75       5.         4.75       3.7342n    3.4752n    3.7342n    10.521n    1.5222    
 5.         5.         5.         3.6241n    3.3796n    3.6241n    10.521n    1.4765    
#Time       v(1)       v(2)       v(3)       v(4)       v(5)       v(6)       v(7)      
 0.         5.         0.         5.         4.6489     5.         3.5235     5.        
 100.p      5.         0.         5.         4.6489     4.9977     3.5235     5.        
 200.p      5.         0.         5.         4.6489     4.998      3.5235     5.        
 300.p      5.         0.         5.         4.6489     4.9983     3.5235     5.        
 400.p      5.         0.         5.         4.6489     4.9985     3.5235     5.        
 500.p      5.         0.         5.         4.6489     4.9987     3.5235     5.        
 600.p      5.         0.         5.         4.6489     4.9988     3.5235     5.        
 700.p      5.         0.         5.         4.6489     4.999      3.5235     5.        
 800.p      5.         0.         5.         4.6489     4.9991     3.5235     5.        
 900.p      5.         0.         5.         4.6489     4.9992     3.5235     5.        
 1.n        5.         0.         5.         4.6489     4.9993     3.5235     5.        
 1.1n       5.         0.25       5.         4.638      4.9994     3.4778     5.        
 1.2n       5.         0.5        5.         4.6261     4.9995     3.4269     5.        
 1.3n       5.         0.75       4.9734     4.5856     4.998      3.3699     4.93      
 1.4n       5.         1.         4.8309     4.4239     4.9872     3.3051     4.58      
 1.5n       5.         1.25       4.6694     4.2379     4.9619     3.2305     4.23      
 1.6n       5.         1.5        4.4818     4.0176     4.9233     3.1432     3.88      
 1.7n       5.         1.75       4.2557     3.7437     4.8725     3.0385     3.53      
 1.8n       5.         2.         3.9668     3.3727     4.8101     2.9092     3.18      
 1.9n       5.         2.25       3.5506     2.7354     4.7364     2.7418     2.83      
 2.n        5.         2.5        2.5        1.6795     4.6514     2.5073     2.4927    
 2.1n       5.         2.75       1.4494     1.2121     4.5544     2.17       2.2582    
 2.2n       5.         3.         1.0332     0.90212    4.4448     1.82       2.0908    
 2.3n       5.         3.25       0.74425    0.66421    4.321      1.47       1.9615    
 2.4n       5.         3.5        0.51821    0.46891    4.1809     1.12       1.8568    
 2.5n       5.         3.75       0.33057    0.30205    4.0209     0.77       1.7695    
 2.6n       5.         4.         0.16908    0.15563    3.8355     0.42       1.6949    
 2.7n       5.         4.25       0.026631   0.024655   3.619      0.07       1.6301    
 2.8n       5.         4.5        3.8551n    3.5797n    3.3781     10.521n    1.5731    
 2.9n       5.         4.75       3.7342n    3.4752n    3.1254     10.521n    1.5222    
 3.n        5.         5.         3.624n     3.3796n    2.8675     10.521n    1.4765    
 3.1n       5.         5.         3.624n     3.3796n    2.614      10.521n    1.4765    
 3.2n       5.         5.         3.624n     3.3796n    2.373      10.521n    1.4765    
 3.3n       5.         5.         3.624n     3.3796n    2.146      10.521n    1.4765    
 3.4n       5.         5.         3.624n     3.3796n    1.9335     10.521n    1.4765    
 3.5n       5.         5.         3.624n     3.3796n    1.7361     10.521n    1.4765    
 3.6n       5.         5.         3.624n     3.3796n    1.554      10.521n    1.4765    
 3.7n       5.         5.         3.624n     3.3796n    1.3868     10.521n    1.4765    
 3.8n       5.         5.         3.624n     3.3796n    1.2344     10.521n    1.4765    
 3.9n       5.         5.         3.624n     3.3796n    1.096      10.521n    1.4765    
 4.n        5.         5.         3.624n     3.3796n    0.971      10.521n    1.4765    
 4.1n       5.         5.         3.624n     3.3796n    0.85853    10.521n    1.4765    
 4.2n       5.         5.         3.624n     3.3796n    0.75774    10.521n    1.4765    
 4.3n       5.         5.         3.624n     3.3796n    0.66771    10.521n    1.4765    
 4.4n       5.         5.         3.624n     3.3796n    0.58753    10.521n    1.4765    
 4.5n       5.         5.         3.624n     3.3796n    0.51633    10.521n    1.4765    
 4.6n       5.         5.         3.624n     3.3796n    0.45324    10.521n    1.4765    
 4.7n       5.         5.         3.624n     3.3796n    0.39747    10.521n    1.4765    
 4.8n       5.         5.         3.624n     3.3796n    0.34825    10.521n    1.4765    
 4.9n       5.         5.         3.624n     3.3796n    0.30489    10.521n    1.4765    
 5.n        5.         5.         3.624n     3.3796n    0.26674    10.521n    1.4765    
