DCFL inverter circuit 
#           v(1)       v(2)       v(3)       v(4)       i(vdd)    
 27.        2.         7.f        3.6519     1.08      -0.0064425 
#Time       v(1)       v(2)       v(3)       v(4)       i(vdd)    
 0.         2.         7.f        3.6519     1.08      -0.0064425 
 20.p       2.         5.2744n    3.9807     1.2226    -0.0084109 
 40.p       2.         10.43n     4.5838     1.84      -0.011543  
 60.p       2.         3.6318n    4.3153     1.6968    -0.0095135 
 80.p       2.         3.3228n    3.9481     1.3352    -0.0082768 
 100.p      2.         3.4829n    4.1383     1.5677    -0.0090712 
 120.p      2.         3.4084n    4.0499     1.4176    -0.0085661 
 140.p      2.         3.4392n    4.0864     1.5138    -0.0088869 
 160.p      2.         3.4304n    4.076      1.452     -0.0086833 
 180.p      2.         3.4291n    4.0744     1.4913    -0.0088115 
 200.p      2.         3.4343n    4.0806     1.4664    -0.0087309 
 220.p      2.         3.4282n    4.0733     1.4821    -0.0087813 
 240.p      2.         3.4338n    4.08       1.4722    -0.0087499 
 260.p      2.         3.4291n    4.0744     1.4784    -0.0087693 
 280.p      2.         3.4328n    4.0788     1.4745    -0.0087573 
 300.p      2.         3.43n      4.0755     1.4769    -0.0087647 
 320.p      2.         3.4321n    4.078      1.4755    -0.0087602 
 340.p      2.         3.4306n    4.0762     1.4764    -0.0087629 
 360.p      2.         3.4316n    4.0774     1.4758    -0.0087613 
 380.p      2.         3.4309n    4.0766     1.4762    -0.0087623 
 400.p      2.         3.4314n    4.0772     1.476     -0.0087617 
 420.p      2.         3.4311n    4.0768     1.4761    -0.008762  
 440.p      2.         3.4313n    4.077      1.476     -0.0087618 
 460.p      2.         3.4311n    4.0769     1.476     -0.0087619 
 480.p      2.         3.4312n    4.077      1.476     -0.0087619 
 500.p      2.         3.4312n    4.0769     1.476     -0.0087619 
 520.p      2.         3.4312n    4.077      1.476     -0.0087619 
 540.p      2.         3.4312n    4.0769     1.476     -0.0087619 
 560.p      2.         3.4312n    4.0769     1.476     -0.0087619 
 580.p      2.         3.4312n    4.0769     1.476     -0.0087619 
 600.p      2.         3.4312n    4.0769     1.476     -0.0087619 
 620.p      2.         3.4312n    4.0769     1.476     -0.0087619 
 640.p      2.         3.4312n    4.0769     1.476     -0.0087619 
 660.p      2.         3.4312n    4.0769     1.476     -0.0087619 
 680.p      2.         3.4312n    4.0769     1.476     -0.0087619 
 700.p      2.         3.4312n    4.0769     1.476     -0.0087619 
 720.p      2.         3.4312n    4.0769     1.476     -0.0087619 
 740.p      2.         3.4312n    4.0769     1.476     -0.0087619 
 760.p      2.         3.4312n    4.0769     1.476     -0.0087619 
 780.p      2.         3.4312n    4.0769     1.476     -0.0087619 
 800.p      2.         3.4312n    4.0769     1.476     -0.0087619 
 820.p      2.         3.4312n    4.0769     1.476     -0.0087619 
 840.p      2.         3.4312n    4.0769     1.476     -0.0087619 
 860.p      2.         3.4312n    4.0769     1.476     -0.0087619 
 880.p      2.         3.4312n    4.0769     1.476     -0.0087619 
 900.p      2.         3.4312n    4.0769     1.476     -0.0087619 
 920.p      2.         3.4312n    4.0769     1.476     -0.0087619 
 940.p      2.         3.4312n    4.0769     1.476     -0.0087619 
 960.p      2.         3.4312n    4.0769     1.476     -0.0087619 
 980.p      2.         3.4312n    4.0769     1.476     -0.0087619 
 1.n        2.         3.4313n    4.0769     1.476     -0.0087619 
 1.02n      2.         1.         1.6651     1.1725    -0.014092  
 1.04n      2.         1.         1.7785     1.4166    -0.0049692 
 1.06n      2.         1.         1.6899     1.1719    -0.013509  
 1.08n      2.         1.         1.6703     1.3282    -0.0044955 
 1.1n       2.         1.         1.6837     1.2477    -0.0137    
 1.12n      2.         1.         1.6766     1.2875    -0.0043992 
 1.14n      2.         1.         1.6802     1.2676    -0.013747  
 1.16n      2.         1.         1.6785     1.2775    -0.004376  
 1.18n      2.         1.         1.6793     1.2726    -0.013758  
 1.2n       2.         1.         1.6789     1.275     -0.0043704 
 1.22n      2.         1.         1.6791     1.2738    -0.013761  
 1.24n      2.         1.         1.679      1.2744    -0.0043689 
 1.26n      2.         1.         1.6791     1.2741    -0.013762  
 1.28n      2.         1.         1.6791     1.2742    -0.0043686 
 1.3n       2.         1.         1.6791     1.2742    -0.013762  
 1.32n      2.         1.         1.6791     1.2742    -0.0043685 
 1.34n      2.         1.         1.6791     1.2742    -0.013762  
 1.36n      2.         1.         1.6791     1.2742    -0.0043685 
 1.38n      2.         1.         1.6791     1.2742    -0.013762  
 1.4n       2.         1.         1.6791     1.2742    -0.0043685 
 1.42n      2.         1.         1.6791     1.2742    -0.013762  
 1.44n      2.         1.         1.6791     1.2742    -0.0043685 
 1.46n      2.         1.         1.6791     1.2742    -0.013762  
 1.48n      2.         1.         1.6791     1.2742    -0.0043685 
 1.5n       2.         1.         1.6791     1.2742    -0.013762  
