DCFL inverter circuit 
#           v(2)       v(3)       i(vdd)    
 0.         0.         0.         0.        
-1.         29.f      -0.0010251  0.        
-2.         4.f        1.9989    -2.0482u   
-3.         4.f        2.2362    -2.2913u   
-4.         5.f        2.5931    -2.6571u   
-5.         7.f        3.3447    -3.4272u   
-6.         8.f        4.1225    -4.224u    
-7.         9.f        4.3705    -4.4782u   
-8.         9.f        4.418     -4.5269u   
-9.         9.f        4.4262    -4.5353u   
-10.        9.f        4.4276    -4.5367u   
-11.        9.f        4.4278    -4.5369u   
 27.        9.f        4.4278    -4.5369u   
#           vgs(z1)    vgd(z1)    cg(z1)     cd(z1)     cgd(z1)   
 27.        4.4278     4.4278     0.02937   -0.014685   0.014685  
#           gm(z1)     gds(z1)    ggs(z1)    ggd(z1)   
 27.        0.         0.0037003  0.0095719  0.0095719 
#           qgs(z1)    cqgs(z1)   qgd(z1)    cqgd(z1)  
 27.        18.611f    0.         18.611f    0.        
#           cs(z1)     p(z1)     
 27.       -0.014685   0.035653  
#Time       v(2)       v(3)       i(vdd)    
 0.         9.f        4.4278    -4.5369u   
 20.p       5.7802n    4.3625    -582.49u   
 40.p       11.503n    5.0551    -0.0011554 
 60.p       4.2029n    4.9938    -425.4u    
 80.p       3.8678n    4.5957    -391.49u   
 100.p      4.1025n    4.8745    -415.24u   
 120.p      3.941n     4.6827    -398.9u    
 140.p      4.0536n    4.8165    -410.29u   
 160.p      3.9758n    4.724     -402.42u   
 180.p      4.0299n    4.7883    -407.9u    
 200.p      3.9924n    4.7438    -404.1u    
 220.p      4.0185n    4.7747    -406.74u   
 240.p      4.0004n    4.7533    -404.91u   
 260.p      4.013n     4.7682    -406.18u   
 280.p      4.0043n    4.7578    -405.3u    
 300.p      4.0103n    4.765     -405.91u   
 320.p      4.0061n    4.76      -405.49u   
 340.p      4.009n     4.7635    -405.78u   
 360.p      4.007n     4.7611    -405.58u   
 380.p      4.0084n    4.7628    -405.72u   
 400.p      4.0074n    4.7616    -405.62u   
 420.p      4.0081n    4.7624    -405.69u   
 440.p      4.0076n    4.7618    -405.64u   
 460.p      4.008n     4.7622    -405.67u   
 480.p      4.0077n    4.762     -405.65u   
 500.p      4.0079n    4.7621    -405.67u   
 520.p      1.         1.7192    -0.0035045 
 540.p      1.         1.4747    -836.93u   
 560.p      1.         1.3051    -0.012002  
 580.p      1.         1.2767     0.0022118 
 600.p      1.         1.2924    -0.011954  
 620.p      1.         1.2837     0.0021851 
 640.p      1.         1.2885    -0.011939  
 660.p      1.         1.2859     0.0021769 
 680.p      1.         1.2874    -0.011935  
 700.p      1.         1.2865     0.0021744 
 720.p      1.         1.287     -0.011934  
 740.p      1.         1.2867     0.0021736 
 760.p      1.         1.2869    -0.011933  
 780.p      1.         1.2868     0.0021734 
 800.p      1.         1.2869    -0.011933  
 820.p      1.         1.2868     0.0021733 
 840.p      1.         1.2868    -0.011933  
 860.p      1.         1.2868     0.0021733 
 880.p      1.         1.2868    -0.011933  
 900.p      1.         1.2868     0.0021733 
 920.p      1.         1.2868    -0.011933  
 940.p      1.         1.2868     0.0021733 
 960.p      1.         1.2868    -0.011933  
 980.p      1.         1.2868     0.0021733 
 1.n        1.         1.2868    -0.011933  
