difpair ckt - simple differential pair 
#           v(1)       v(2)       v(3)       v(4)       v(5)       v(6)      
+ v(7)       v(8)       v(9)      
 27.       -76.611p   -0.0076611 -0.0076611  5.2291     5.2291    -0.76997   
+-11.221     12.       -12.       
v(4)   0.                2.               4.                6.               8.
v(5)   0.                2.               4.                6.               8.
        +-----------------+----------------+-----------------+----------------+
 0.     |                 .                .          *      .                |
 10.n   |                 .                .         *+      .                |
 20.n   |                 .                .       *    +    .                |
 30.n   |                 .                .     *        +  .                |
 40.n   |                 .                .   *            +.                |
 50.n   |                 .                .*                . +              |
 60.n   |                 .               *.                 .   +            |
 70.n   |                 .             *  .                 .     +          |
 80.n   |                 .            *   .                 .       +        |
 90.n   |                 .           *    .                 .       +        |
 100.n  |                 .           *    .                 .       +        |
 110.n  |                 .             *  .                 .      +         |
 120.n  |                 .               *.                 .    +           |
 130.n  |                 .                . *               . +              |
 140.n  |                 .                .    *           +.                |
 150.n  |                 .                .       *     +   .                |
 160.n  |                 .                .          *      .                |
 170.n  |                 .                .       +    *    .                |
 180.n  |                 .                .     +         * .                |
 190.n  |                 .                .    +           *.                |
 200.n  |                 .                .   +            *.                |
 210.n  |                 .                .    +          * .                |
 220.n  |                 .                .      +      *   .                |
 230.n  |                 .                .         +*      .                |
 240.n  |                 .                .        *  +     .                |
 250.n  |                 .                .     *        +  .                |
 260.n  |                 .                .   *            +.                |
 270.n  |                 .                . *               .+               |
 280.n  |                 .                *                 .  +             |
 290.n  |                 .               *.                 .   +            |
 300.n  |                 .               *.                 .    +           |
 310.n  |                 .                *                 .  +             |
 320.n  |                 .                .  *              .+               |
 330.n  |                 .                .    *          + .                |
 340.n  |                 .                .       *     +   .                |
 350.n  |                 .                .          *      .                |
 360.n  |                 .                .       +     *   .                |
 370.n  |                 .                .     +         * .                |
 380.n  |                 .                .   +             *                |
 390.n  |                 .                . +               .*               |
 400.n  |                 .                . +               .*               |
 410.n  |                 .                .  +              *                |
 420.n  |                 .                .    +          * .                |
 430.n  |                 .                .       +    *    .                |
 440.n  |                 .                .         +*      .                |
 450.n  |                 .                .       *    +    .                |
 460.n  |                 .                .    *          + .                |
 470.n  |                 .                .  *              +                |
 480.n  |                 .                .*                . +              |
 490.n  |                 .                *                 .  +             |
 500.n  |                 .                *                 .  +             |
        +-----------------+----------------+-----------------+----------------+
#Time       qcs(q1)    qcs(q2)    qcs(q3)    qcs(q4)    qcs(qnl)  
 0.        -80.955p   -128.51p    15.383p    224.42p    ??        
 10.n      -80.597p   -128.55p    15.066p    224.42p    ??        
 20.n      -77.728p   -131.02p    14.662p    224.42p    ??        
 30.n      -73.604p   -134.8p     14.287p    224.42p    ??        
 40.n      -69.088p   -139.09p    14.024p    224.42p    ??        
 50.n      -64.695p   -143.42p    13.925p    224.42p    ??        
 60.n      -60.686p   -147.55p    14.008p    224.42p    ??        
 70.n      -57.269p   -151.25p    14.258p    224.42p    ??        
 80.n      -54.802p   -154.1p     14.627p    224.42p    ??        
 90.n      -53.945p   -155.36p    15.031p    224.42p    ??        
 100.n     -55.476p   -154.16p    15.384p    224.42p    ??        
 110.n     -59.646p   -150.2p     15.633p    224.42p    ??        
 120.n     -65.835p   -144.12p    15.776p    224.42p    ??        
 130.n     -73.03p    -136.95p    15.842p    224.42p    ??        
 140.n     -80.462p   -129.51p    15.871p    224.42p    ??        
 150.n     -87.735p   -122.21p    15.882p    224.42p    ??        
 160.n     -94.645p   -115.26p    15.881p    224.42p    ??        
 170.n     -100.98p   -108.88p    15.863p    224.42p    ??        
 180.n     -106.35p   -103.42p    15.805p    224.42p    ??        
 190.n     -110.p     -99.618p    15.667p    224.42p    ??        
 200.n     -111.01p   -98.343p    15.415p    224.42p    ??        
 210.n     -109.04p   -99.952p    15.058p    224.42p    ??        
 220.n     -104.73p   -103.87p    14.649p    224.42p    ??        
 230.n     -99.214p   -109.04p    14.271p    224.42p    ??        
 240.n     -93.401p   -114.63p    14.008p    224.42p    ??        
 250.n     -87.79p    -120.19p    13.909p    224.42p    ??        
 260.n     -82.623p   -125.48p    13.993p    224.42p    ??        
 270.n     -78.1p     -130.29p    14.245p    224.42p    ??        
 280.n     -74.562p   -134.22p    14.617p    224.42p    ??        
 290.n     -72.662p   -136.53p    15.026p    224.42p    ??        
 300.n     -73.182p   -136.35p    15.384p    224.42p    ??        
#Time       ccs(q1)    ccs(q2)    ccs(q3)    ccs(q4)    ccs(qnl)  
 0.         20.p       20.p       20.p       20.p       ??        
 10.n       20.p       20.p       20.p       20.p       ??        
 20.n       20.p       20.p       20.p       20.p       ??        
 30.n       20.p       20.p       20.p       20.p       ??        
 40.n       20.p       20.p       20.p       20.p       ??        
 50.n       20.p       20.p       20.p       20.p       ??        
 60.n       20.p       20.p       20.p       20.p       ??        
 70.n       20.p       20.p       20.p       20.p       ??        
 80.n       20.p       20.p       20.p       20.p       ??        
 90.n       20.p       20.p       20.p       20.p       ??        
 100.n      20.p       20.p       20.p       20.p       ??        
 110.n      20.p       20.p       20.p       20.p       ??        
 120.n      20.p       20.p       20.p       20.p       ??        
 130.n      20.p       20.p       20.p       20.p       ??        
 140.n      20.p       20.p       20.p       20.p       ??        
 150.n      20.p       20.p       20.p       20.p       ??        
 160.n      20.p       20.p       20.p       20.p       ??        
 170.n      20.p       20.p       20.p       20.p       ??        
 180.n      20.p       20.p       20.p       20.p       ??        
 190.n      20.p       20.p       20.p       20.p       ??        
 200.n      20.p       20.p       20.p       20.p       ??        
 210.n      20.p       20.p       20.p       20.p       ??        
 220.n      20.p       20.p       20.p       20.p       ??        
 230.n      20.p       20.p       20.p       20.p       ??        
 240.n      20.p       20.p       20.p       20.p       ??        
 250.n      20.p       20.p       20.p       20.p       ??        
 260.n      20.p       20.p       20.p       20.p       ??        
 270.n      20.p       20.p       20.p       20.p       ??        
 280.n      20.p       20.p       20.p       20.p       ??        
 290.n      20.p       20.p       20.p       20.p       ??        
 300.n      20.p       20.p       20.p       20.p       ??        
#Time       vcs(q1)    vcs(q2)    vcs(q3)    vcs(q4)    vcs(qnl)  
 0.         ??         ??         ??         ??         ??        
 10.n       ??         ??         ??         ??         ??        
 20.n       ??         ??         ??         ??         ??        
 30.n       ??         ??         ??         ??         ??        
 40.n       ??         ??         ??         ??         ??        
 50.n       ??         ??         ??         ??         ??        
 60.n       ??         ??         ??         ??         ??        
 70.n       ??         ??         ??         ??         ??        
 80.n       ??         ??         ??         ??         ??        
 90.n       ??         ??         ??         ??         ??        
 100.n      ??         ??         ??         ??         ??        
 110.n      ??         ??         ??         ??         ??        
 120.n      ??         ??         ??         ??         ??        
 130.n      ??         ??         ??         ??         ??        
 140.n      ??         ??         ??         ??         ??        
 150.n      ??         ??         ??         ??         ??        
 160.n      ??         ??         ??         ??         ??        
 170.n      ??         ??         ??         ??         ??        
 180.n      ??         ??         ??         ??         ??        
 190.n      ??         ??         ??         ??         ??        
 200.n      ??         ??         ??         ??         ??        
 210.n      ??         ??         ??         ??         ??        
 220.n      ??         ??         ??         ??         ??        
 230.n      ??         ??         ??         ??         ??        
 240.n      ??         ??         ??         ??         ??        
 250.n      ??         ??         ??         ??         ??        
 260.n      ??         ??         ??         ??         ??        
 270.n      ??         ??         ??         ??         ??        
 280.n      ??         ??         ??         ??         ??        
 290.n      ??         ??         ??         ??         ??        
 300.n      ??         ??         ??         ??         ??        
